
T0A68 000:337 SEGGER J-Link V5.02f Log File (0003ms, 0332ms total)
T0A68 000:337 DLL Compiled: Oct  2 2015 20:51:34 (0003ms, 0332ms total)
T0A68 000:337 Logging started @ 2015-10-11 23:18 (0004ms, 0333ms total)
T0A68 000:341 JLINK_SetWarnOutHandler(...) (0001ms, 0334ms total)
T0A68 000:342 JLINK_OpenEx(...)
Firmware: J-Link ARM V8 compiled Nov 28 2014 13:44:46
Hardware: V8.00
S/N: 308622870
Feature(s): RDI,FlashDL,FlashBP,JFlash,GDBFULL  returns O.K. (0289ms, 0623ms total)
T0A68 000:631 JLINK_SetErrorOutHandler(...) (0001ms, 0624ms total)
T0A68 000:632 JLINK_ExecCommand("ProjectFile = "E:\APRSDongle\software\mainBoard\JLinkSettings.ini"", ...)  returns 0x00 (0013ms, 0637ms total)
T0A68 000:651 JLINK_ExecCommand("Device = MKL26Z128xxx4", ...)Device "MKL26Z128XXX4" selected.  returns 0x00 (0009ms, 0648ms total)
T0A68 000:661 JLINK_ExecCommand("DisableConnectionTimeout", ...)  returns 0x01 (0000ms, 0649ms total)
T0A68 000:663 JLINK_GetHardwareVersion()  returns 0x13880 (0000ms, 0650ms total)
T0A68 000:664 JLINK_GetDLLVersion()  returns 50206 (0000ms, 0651ms total)
T0A68 000:664 JLINK_GetFirmwareString(...) (0001ms, 0652ms total)
T0A68 000:687 JLINK_GetDLLVersion()  returns 50206 (0003ms, 0655ms total)
T0A68 000:690 JLINK_GetCompileDateTime() (0001ms, 0656ms total)
T0A68 000:696 JLINK_GetFirmwareString(...) (0001ms, 0657ms total)
T0A68 000:704 JLINK_GetHardwareVersion()  returns 0x13880 (0002ms, 0659ms total)
T0A68 000:736 JLINK_TIF_Select(JLINKARM_TIF_SWD)  returns 0x00 (0013ms, 0672ms total)
T0A68 000:749 JLINK_SetMaxSpeed() >0x108 TIF>Found SWD-DP with ID 0x0BC11477 >0x0D TIF> >0x28 TIF> >0x0D TIF> >0x28 TIF> >0x0D TIF> >0x21 TIF> >0x0D TIF> >0x28 TIF> >0x0D TIF> >0x21 TIF> >0x0D TIF> >0x21 TIF> >0x0D TIF> >0x21 TIF> >0x0D TIF> >0x21 TIF> >0x0D TIF> >0x21 TIF> >0x0D TIF> >0x21 TIF> >0x0D TIF> >0x21 TIF> >0x0D TIF> >0x21 TIF> >0x0D TIF> >0x21 TIF> >0x0D TIF> >0x21 TIF> >0x0D TIF> >0x21 TIF> >0x0D TIF> >0x21 TIF> >0x0D TIF> >0x21 TIF> >0x0D TIF> >0x21 TIF> >0x0D TIF> >0x21 TIF> >0x0D TIF>
 >0x21 TIF> >0x0D TIF> >0x28 TIF> >0x0D TIF> >0x28 TIF> >0x0D TIF> >0x28 TIF> >0x0D TIF> >0x21 TIF> >0x0D TIF> >0x21 TIF> >0x108 TIF>Found SWD-DP with ID 0x0BC11477 >0x0D TIF> >0x21 TIF> >0x0D TIF> >0x28 TIF> >0x0D TIF> >0x28 TIF> >0x0D TIF> >0x21 TIF> >0x0D TIF> >0x28 TIF> >0x0D TIF> >0x21 TIF> >0x0D TIF> >0x21 TIF> >0x0D TIF> >0x21 TIF> >0x0D TIF> >0x28 TIF> >0x0D TIF> >0x28 TIF> >0x0D TIF> >0x28 TIF> >0x0D TIF> >0x21 TIF> >0x0D TIF> >0x21 TIF> >0x0D TIF> >0x28 TIF> >0x0D TIF> >0x21 TIF> >0x0D TIF>
 >0x21 TIF> >0x0D TIF> >0x21 TIF> >0x0D TIF> >0x21 TIF> >0x0D TIF> >0x21 TIF> >0x0D TIF> >0x28 TIF> >0x0D TIF> >0x21 TIF> >0x0D TIF> >0x21 TIF> >0x0D TIF> >0x28 TIF> >0x0D TIF> >0x21 TIF> >0x0D TIF> >0x21 TIF> >0x0D TIF> >0x21 TIF> >0x0D TIF> >0x21 TIF> >0x0D TIF> >0x21 TIF> >0x0D TIF> >0x28 TIF> >0x0D TIF> >0x21 TIF> >0x0D TIF> >0x21 TIF> >0x0D TIF> >0x21 TIF> >0x0D TIF> >0x28 TIF> >0x0D TIF> >0x28 TIF> >0x0D TIF> >0x21 TIF> >0x0D TIF> >0x28 TIF> >0x0D TIF> >0x28 TIF> >0x0D TIF> >0x28 TIF> >0x0D TIF>
 >0x21 TIF> >0x0D TIF> >0x21 TIF> >0x0D TIF> >0x28 TIF> >0x0D TIF> >0x21 TIF> >0x0D TIF> >0x21 TIF>Found Cortex-M0 r0p0, Little endian. -- CPU_ReadMem(4 bytes @ 0xE000EDF0) -- CPU_WriteMem(4 bytes @ 0xE000EDF0) -- CPU_ReadMem(4 bytes @ 0xE0002000)FPUnit: 2 code (BP) slots and 0 literal slots -- CPU_ReadMem(4 bytes @ 0xE000EDFC) -- CPU_WriteMem(4 bytes @ 0xE000EDFC) -- CPU_ReadMem(4 bytes @ 0xE0001000) -- CPU_WriteMem(4 bytes @ 0xE0001000)CoreSight components:ROMTbl 0 @ F0002000
 -- CPU_ReadMem(16 bytes @ 0xF0002000) -- CPU_ReadMem(16 bytes @ 0xF0000FF0) -- CPU_ReadMem(16 bytes @ 0xF0000FE0)ROMTbl 0 [0]: FFFFE000, CID: B105900D, PID: 000BB932 MTB-M0+ -- CPU_ReadMem(16 bytes @ 0xF0001FF0) -- CPU_ReadMem(16 bytes @ 0xF0001FE0)ROMTbl 0 [1]: FFFFF000, CID: B105900D, PID: 0008E000 MTBDWT -- CPU_ReadMem(16 bytes @ 0xE00FFFF0) -- CPU_ReadMem(16 bytes @ 0xE00FFFE0)ROMTbl 0 [2]: F00FD000, CID: B105100D, PID: 000BB4C0 ROM TableROMTbl 1 @ E00FF000 -- CPU_ReadMem(16 bytes @ 0xE00FF000)
 -- CPU_ReadMem(16 bytes @ 0xE000EFF0) -- CPU_ReadMem(16 bytes @ 0xE000EFE0)ROMTbl 1 [0]: FFF0F000, CID: B105E00D, PID: 000BB008 SCS -- CPU_ReadMem(16 bytes @ 0xE0001FF0) -- CPU_ReadMem(16 bytes @ 0xE0001FE0)ROMTbl 1 [1]: FFF02000, CID: B105E00D, PID: 000BB00A DWT -- CPU_ReadMem(16 bytes @ 0xE0002FF0) -- CPU_ReadMem(16 bytes @ 0xE0002FE0)ROMTbl 1 [2]: FFF03000, CID: B105E00D, PID: 000BB00B FPB (0599ms, 1271ms total)
T0A68 001:349 JLINK_GetSpeed()  returns 0x7D0 (0002ms, 1274ms total)
T0A68 001:352 JLINK_GetId() >0x0D TIF> >0x21 TIF>  returns 0x0BC11477 (0013ms, 1288ms total)
T0A68 001:366 JLINK_CORE_GetFound()  returns 0x60000FF (0002ms, 1291ms total)
T0A68 001:376 JLINK_ReadMem (0xE00FFFF0, 0x0010 Bytes, ...) -- CPU is running -- CPU_ReadMem(16 bytes @ 0xE00FFFF0) - Data: 0D 00 00 00 10 00 00 00 05 00 00 00 B1 00 00 00  returns 0x00 (0007ms, 1299ms total)
T0A68 001:383 JLINK_ReadMem (0xE00FFFD0, 0x0020 Bytes, ...) -- CPU is running -- CPU_ReadMem(32 bytes @ 0xE00FFFD0) - Data: 04 00 00 00 00 00 00 00 00 00 00 00 00 00 00 00 ...  returns 0x00 (0008ms, 1307ms total)
T0A68 001:392 JLINK_ReadMem (0xE00FF000, 0x0018 Bytes, ...) -- CPU is running -- CPU_ReadMem(24 bytes @ 0xE00FF000) - Data: 03 F0 F0 FF 03 20 F0 FF 03 30 F0 FF 00 00 00 00 ...  returns 0x00 (0007ms, 1315ms total)
T0A68 001:400 JLINK_CORE_GetFound()  returns 0x60000FF (0002ms, 1318ms total)
T0A68 001:403 JLINK_ReadMemU32(0xE000ED00, 0x0001 Items, ...) -- CPU is running -- CPU_ReadMem(4 bytes @ 0xE000ED00) - Data: 00 C6 0C 41  returns 0x01 (0007ms, 1326ms total)
T0A68 001:411 JLINK_SetResetType(JLINKARM_RESET_TYPE_NORMAL)  returns JLINKARM_RESET_TYPE_NORMAL (0003ms, 1330ms total)
T0A68 001:415 JLINK_Reset() -- CPU is running -- CPU_WriteMem(4 bytes @ 0xE000EDF0) -- CPU is running -- CPU_WriteMem(4 bytes @ 0xE000EDFC) >0x35 TIF> -- CPU is running -- CPU_WriteMem(4 bytes @ 0xE000ED0C) -- CPU is running -- CPU_ReadMem(4 bytes @ 0xE000EDF0) -- CPU is running -- CPU_ReadMem(4 bytes @ 0xE000EDF0) -- CPU is running -- CPU_WriteMem(4 bytes @ 0xE000EDF0) -- CPU is running -- CPU_WriteMem(4 bytes @ 0xE000EDFC) -- CPU is running -- CPU_ReadMem(4 bytes @ 0xE000EDF0)
 -- CPU_WriteMem(4 bytes @ 0xE0002000) -- CPU_ReadMem(4 bytes @ 0xE000EDFC) -- CPU_ReadMem(4 bytes @ 0xE0001000) -- CPU_WriteMem(4 bytes @ 0xE0001000) (0060ms, 1391ms total)
T0A68 001:477 JLINK_Halt()  returns 0x00 (0003ms, 1396ms total)
T0A68 001:480 JLINK_IsHalted()  returns TRUE (0003ms, 1399ms total)
T0A68 001:483 JLINK_ReadMemU32(0xE000EDF0, 0x0001 Items, ...) -- CPU_ReadMem(4 bytes @ 0xE000EDF0) - Data: 03 00 03 01  returns 0x01 (0007ms, 1403ms total)
T0A68 001:491 JLINK_WriteU32(0xE000EDF0, 0xA05F0003) -- CPU_WriteMem(4 bytes @ 0xE000EDF0)  returns 0x00 (0004ms, 1408ms total)
T0A68 001:496 JLINK_WriteU32(0xE000EDFC, 0x01000000) -- CPU_WriteMem(4 bytes @ 0xE000EDFC)  returns 0x00 (0006ms, 1415ms total)
T0A68 001:536 JLINK_GetHWStatus(...)  returns 0x00 (0005ms, 1421ms total)
T0A68 001:564 JLINK_GetNumBPUnits(Type = 0xFFFFFF00)  returns 0x02 (0002ms, 1423ms total)
T0A68 001:567 JLINK_GetNumBPUnits(Type = 0xF0)  returns 0x2000 (0002ms, 1426ms total)
T0A68 001:569 JLINK_GetNumWPUnits()  returns 0x02 (0003ms, 1429ms total)
T0A68 001:593 JLINK_GetSpeed()  returns 0x7D0 (0005ms, 1435ms total)
T0A68 001:610 JLINK_ReadMemU32(0xE000E004, 0x0001 Items, ...) -- CPU_ReadMem(4 bytes @ 0xE000E004) - Data: 00 00 00 00  returns 0x01 (0017ms, 1453ms total)
T0A68 001:627 JLINK_Halt()  returns 0x00 (0002ms, 1455ms total)
T0A68 001:630 JLINK_IsHalted()  returns TRUE (0003ms, 1459ms total)
T0A68 001:637 JLINK_WriteMem(0x1FFFF000, 0x0620 Bytes, ...) - Data: 00 BE 0A E0 0D 78 2D 06 68 40 08 24 40 00 00 D3 ... -- CPU_WriteMem(1568 bytes @ 0x1FFFF000)  returns 0x620 (0023ms, 1479ms total)
T0A68 001:661 JLINK_WriteReg(R0, 0x00000000)  returns 0x00 (0003ms, 1483ms total)
T0A68 001:665 JLINK_WriteReg(R1, 0x007A1200)  returns 0x00 (0003ms, 1487ms total)
T0A68 001:668 JLINK_WriteReg(R2, 0x00000001)  returns 0x00 (0003ms, 1490ms total)
T0A68 001:672 JLINK_WriteReg(R3, 0x00000000)  returns 0x00 (0002ms, 1493ms total)
T0A68 001:674 JLINK_WriteReg(R4, 0x00000000)  returns 0x00 (0003ms, 1496ms total)
T0A68 001:678 JLINK_WriteReg(R5, 0x00000000)  returns 0x00 (0003ms, 1500ms total)
T0A68 001:681 JLINK_WriteReg(R6, 0x00000000)  returns 0x00 (0004ms, 1504ms total)
T0A68 001:685 JLINK_WriteReg(R7, 0x00000000)  returns 0x00 (0004ms, 1508ms total)
T0A68 001:689 JLINK_WriteReg(R8, 0x00000000)  returns 0x00 (0002ms, 1510ms total)
T0A68 001:692 JLINK_WriteReg(R9, 0x1FFFF618)  returns 0x00 (0001ms, 1512ms total)
T0A68 001:694 JLINK_WriteReg(R10, 0x00000000)  returns 0x00 (0003ms, 1516ms total)
T0A68 001:698 JLINK_WriteReg(R11, 0x00000000)  returns 0x00 (0003ms, 1520ms total)
T0A68 001:702 JLINK_WriteReg(R12, 0x00000000)  returns 0x00 (0002ms, 1523ms total)
T0A68 001:705 JLINK_WriteReg(R13 (SP), 0x20003000)  returns 0x00 (0003ms, 1527ms total)
T0A68 001:709 JLINK_WriteReg(R14, 0x1FFFF001)  returns 0x00 (0003ms, 1531ms total)
T0A68 001:713 JLINK_WriteReg(R15 (PC), 0x1FFFF020)  returns 0x00 (0002ms, 1534ms total)
T0A68 001:716 JLINK_WriteReg(XPSR, 0x01000000)  returns 0x00 (0003ms, 1538ms total)
T0A68 001:720 JLINK_WriteReg(MSP, 0x20003000)  returns 0x00 (0002ms, 1541ms total)
T0A68 001:723 JLINK_WriteReg(PSP, 0x20003000)  returns 0x00 (0002ms, 1544ms total)
T0A68 001:726 JLINK_WriteReg(CFBP, 0x00000000)  returns 0x00 (0002ms, 1547ms total)
T0A68 001:729 JLINK_SetBPEx(Addr = 0x1FFFF000, Type = 0xFFFFFFF2)  returns 0x00000001 (0003ms, 1551ms total)
T0A68 001:732 JLINK_Go() -- CPU_WriteMem(4 bytes @ 0xE0002000) -- CPU_ReadMem(4 bytes @ 0xE0001000) -- CPU_WriteMem(4 bytes @ 0xE0001000) -- CPU_WriteMem(4 bytes @ 0xE0002008) -- CPU_WriteMem(4 bytes @ 0xE000200C) -- CPU_WriteMem(4 bytes @ 0xE0001004) (0023ms, 1574ms total)
T0A68 001:756 JLINK_IsHalted()  returns TRUE (0008ms, 1583ms total)
T0A68 001:766 JLINK_ReadReg(R15 (PC))  returns 0x1FFFF000 (0003ms, 1578ms total)
T0A68 001:770 JLINK_ClrBPEx(BPHandle = 0x00000001)  returns 0x00 (0002ms, 1581ms total)
T0A68 001:773 JLINK_ReadReg(R0)  returns 0x00000000 (0002ms, 1584ms total)
T0A68 001:776 JLINK_WriteReg(R0, 0x00000000)  returns 0x00 (0007ms, 1592ms total)
T0A68 001:784 JLINK_WriteReg(R1, 0x00000400)  returns 0x00 (0004ms, 1597ms total)
T0A68 001:789 JLINK_WriteReg(R2, 0x000000FF)  returns 0x00 (0002ms, 1600ms total)
T0A68 001:792 JLINK_WriteReg(R3, 0x00000000)  returns 0x00 (0006ms, 1607ms total)
T0A68 001:798 JLINK_WriteReg(R4, 0x00000000)  returns 0x00 (0003ms, 1610ms total)
T0A68 001:802 JLINK_WriteReg(R5, 0x00000000)  returns 0x00 (0003ms, 1614ms total)
T0A68 001:805 JLINK_WriteReg(R6, 0x00000000)  returns 0x00 (0003ms, 1617ms total)
T0A68 001:809 JLINK_WriteReg(R7, 0x00000000)  returns 0x00 (0002ms, 1620ms total)
T0A68 001:812 JLINK_WriteReg(R8, 0x00000000)  returns 0x00 (0002ms, 1623ms total)
T0A68 001:815 JLINK_WriteReg(R9, 0x1FFFF618)  returns 0x00 (0002ms, 1626ms total)
T0A68 001:817 JLINK_WriteReg(R10, 0x00000000)  returns 0x00 (0002ms, 1628ms total)
T0A68 001:820 JLINK_WriteReg(R11, 0x00000000)  returns 0x00 (0003ms, 1632ms total)
T0A68 001:823 JLINK_WriteReg(R12, 0x00000000)  returns 0x00 (0005ms, 1637ms total)
T0A68 001:831 JLINK_WriteReg(R13 (SP), 0x20003000)  returns 0x00 (0005ms, 1645ms total)
T0A68 001:837 JLINK_WriteReg(R14, 0x1FFFF001)  returns 0x00 (0004ms, 1650ms total)
T0A68 001:841 JLINK_WriteReg(R15 (PC), 0x1FFFF068)  returns 0x00 (0004ms, 1654ms total)
T0A68 001:846 JLINK_WriteReg(XPSR, 0x01000000)  returns 0x00 (0002ms, 1657ms total)
T0A68 001:849 JLINK_WriteReg(MSP, 0x20003000)  returns 0x00 (0002ms, 1660ms total)
T0A68 001:852 JLINK_WriteReg(PSP, 0x20003000)  returns 0x00 (0002ms, 1663ms total)
T0A68 001:855 JLINK_WriteReg(CFBP, 0x00000000)  returns 0x00 (0003ms, 1667ms total)
T0A68 001:859 JLINK_SetBPEx(Addr = 0x1FFFF000, Type = 0xFFFFFFF2)  returns 0x00000002 (0003ms, 1671ms total)
T0A68 001:863 JLINK_Go() -- CPU_WriteMem(4 bytes @ 0xE0002000) -- CPU_ReadMem(4 bytes @ 0xE0001000) -- CPU_WriteMem(4 bytes @ 0xE0001000) (0018ms, 1690ms total)
T0A68 001:882 JLINK_IsHalted()  returns TRUE (0010ms, 1701ms total)
T0A68 001:892 JLINK_ReadReg(R15 (PC))  returns 0x1FFFF000 (0003ms, 1694ms total)
T0A68 001:896 JLINK_ClrBPEx(BPHandle = 0x00000002)  returns 0x00 (0003ms, 1698ms total)
T0A68 001:900 JLINK_ReadReg(R0)  returns 0x00000001 (0001ms, 1700ms total)
T0A68 001:902 JLINK_WriteReg(R0, 0x00000000)  returns 0x00 (0003ms, 1704ms total)
T0A68 001:906 JLINK_WriteReg(R1, 0x00000400)  returns 0x00 (0004ms, 1709ms total)
T0A68 001:910 JLINK_WriteReg(R2, 0x000000FF)  returns 0x00 (0003ms, 1712ms total)
T0A68 001:914 JLINK_WriteReg(R3, 0x00000000)  returns 0x00 (0002ms, 1715ms total)
T0A68 001:918 JLINK_WriteReg(R4, 0x00000000)  returns 0x00 (0003ms, 1720ms total)
T0A68 001:921 JLINK_WriteReg(R5, 0x00000000)  returns 0x00 (0003ms, 1723ms total)
T0A68 001:925 JLINK_WriteReg(R6, 0x00000000)  returns 0x00 (0002ms, 1726ms total)
T0A68 001:928 JLINK_WriteReg(R7, 0x00000000)  returns 0x00 (0002ms, 1729ms total)
T0A68 001:931 JLINK_WriteReg(R8, 0x00000000)  returns 0x00 (0003ms, 1733ms total)
T0A68 001:935 JLINK_WriteReg(R9, 0x1FFFF618)  returns 0x00 (0010ms, 1744ms total)
T0A68 001:945 JLINK_WriteReg(R10, 0x00000000)  returns 0x00 (0003ms, 1747ms total)
T0A68 001:949 JLINK_WriteReg(R11, 0x00000000)  returns 0x00 (0002ms, 1750ms total)
T0A68 001:952 JLINK_WriteReg(R12, 0x00000000)  returns 0x00 (0003ms, 1754ms total)
T0A68 001:955 JLINK_WriteReg(R13 (SP), 0x20003000)  returns 0x00 (0005ms, 1759ms total)
T0A68 001:960 JLINK_WriteReg(R14, 0x1FFFF001)  returns 0x00 (0003ms, 1762ms total)
T0A68 001:964 JLINK_WriteReg(R15 (PC), 0x1FFFF0BC)  returns 0x00 (0002ms, 1765ms total)
T0A68 001:966 JLINK_WriteReg(XPSR, 0x01000000)  returns 0x00 (0003ms, 1768ms total)
T0A68 001:969 JLINK_WriteReg(MSP, 0x20003000)  returns 0x00 (0003ms, 1771ms total)
T0A68 001:973 JLINK_WriteReg(PSP, 0x20003000)  returns 0x00 (0003ms, 1775ms total)
T0A68 001:976 JLINK_WriteReg(CFBP, 0x00000000)  returns 0x00 (0003ms, 1778ms total)
T0A68 001:980 JLINK_SetBPEx(Addr = 0x1FFFF000, Type = 0xFFFFFFF2)  returns 0x00000003 (0002ms, 1781ms total)
T0A68 001:983 JLINK_Go() -- CPU_WriteMem(4 bytes @ 0xE0002000) -- CPU_ReadMem(4 bytes @ 0xE0001000) -- CPU_WriteMem(4 bytes @ 0xE0001000) (0031ms, 1813ms total)
T0A68 002:015 JLINK_IsHalted()  returns FALSE (0004ms, 1818ms total)
T0A68 002:086 JLINK_IsHalted()  returns TRUE (0015ms, 1829ms total)
T0A68 002:101 JLINK_ReadReg(R15 (PC))  returns 0x1FFFF000 (0004ms, 1818ms total)
T0A68 002:105 JLINK_ClrBPEx(BPHandle = 0x00000003)  returns 0x00 (0004ms, 1822ms total)
T0A68 002:110 JLINK_ReadReg(R0)  returns 0x00000000 (0003ms, 1826ms total)
T0A68 002:115 JLINK_WriteReg(R0, 0x00000400)  returns 0x00 (0004ms, 1831ms total)
T0A68 002:119 JLINK_WriteReg(R1, 0x00000400)  returns 0x00 (0003ms, 1834ms total)
T0A68 002:123 JLINK_WriteReg(R2, 0x000000FF)  returns 0x00 (0003ms, 1838ms total)
T0A68 002:126 JLINK_WriteReg(R3, 0x00000000)  returns 0x00 (0002ms, 1840ms total)
T0A68 002:129 JLINK_WriteReg(R4, 0x00000000)  returns 0x00 (0003ms, 1844ms total)
T0A68 002:132 JLINK_WriteReg(R5, 0x00000000)  returns 0x00 (0003ms, 1847ms total)
T0A68 002:136 JLINK_WriteReg(R6, 0x00000000)  returns 0x00 (0002ms, 1850ms total)
T0A68 002:139 JLINK_WriteReg(R7, 0x00000000)  returns 0x00 (0003ms, 1854ms total)
T0A68 002:143 JLINK_WriteReg(R8, 0x00000000)  returns 0x00 (0002ms, 1857ms total)
T0A68 002:146 JLINK_WriteReg(R9, 0x1FFFF618)  returns 0x00 (0003ms, 1861ms total)
T0A68 002:149 JLINK_WriteReg(R10, 0x00000000)  returns 0x00 (0002ms, 1863ms total)
T0A68 002:152 JLINK_WriteReg(R11, 0x00000000)  returns 0x00 (0003ms, 1867ms total)
T0A68 002:155 JLINK_WriteReg(R12, 0x00000000)  returns 0x00 (0006ms, 1873ms total)
T0A68 002:163 JLINK_WriteReg(R13 (SP), 0x20003000)  returns 0x00 (0005ms, 1880ms total)
T0A68 002:168 JLINK_WriteReg(R14, 0x1FFFF001)  returns 0x00 (0005ms, 1885ms total)
T0A68 002:174 JLINK_WriteReg(R15 (PC), 0x1FFFF068)  returns 0x00 (0003ms, 1889ms total)
T0A68 002:178 JLINK_WriteReg(XPSR, 0x01000000)  returns 0x00 (0003ms, 1893ms total)
T0A68 002:183 JLINK_WriteReg(MSP, 0x20003000)  returns 0x00 (0004ms, 1899ms total)
T0A68 002:187 JLINK_WriteReg(PSP, 0x20003000)  returns 0x00 (0003ms, 1902ms total)
T0A68 002:190 JLINK_WriteReg(CFBP, 0x00000000)  returns 0x00 (0003ms, 1905ms total)
T0A68 002:194 JLINK_SetBPEx(Addr = 0x1FFFF000, Type = 0xFFFFFFF2)  returns 0x00000004 (0003ms, 1909ms total)
T0A68 002:197 JLINK_Go() -- CPU_WriteMem(4 bytes @ 0xE0002000) -- CPU_ReadMem(4 bytes @ 0xE0001000) -- CPU_WriteMem(4 bytes @ 0xE0001000) (0032ms, 1941ms total)
T0A68 002:230 JLINK_IsHalted()  returns TRUE (0010ms, 1952ms total)
T0A68 002:241 JLINK_ReadReg(R15 (PC))  returns 0x1FFFF000 (0003ms, 1945ms total)
T0A68 002:245 JLINK_ClrBPEx(BPHandle = 0x00000004)  returns 0x00 (0002ms, 1948ms total)
T0A68 002:248 JLINK_ReadReg(R0)  returns 0x00000001 (0003ms, 1952ms total)
T0A68 002:251 JLINK_WriteReg(R0, 0x00000400)  returns 0x00 (0003ms, 1955ms total)
T0A68 002:254 JLINK_WriteReg(R1, 0x00000400)  returns 0x00 (0003ms, 1958ms total)
T0A68 002:257 JLINK_WriteReg(R2, 0x000000FF)  returns 0x00 (0005ms, 1963ms total)
T0A68 002:263 JLINK_WriteReg(R3, 0x00000000)  returns 0x00 (0006ms, 1970ms total)
T0A68 002:270 JLINK_WriteReg(R4, 0x00000000)  returns 0x00 (0002ms, 1973ms total)
T0A68 002:273 JLINK_WriteReg(R5, 0x00000000)  returns 0x00 (0002ms, 1976ms total)
T0A68 002:276 JLINK_WriteReg(R6, 0x00000000)  returns 0x00 (0003ms, 1980ms total)
T0A68 002:279 JLINK_WriteReg(R7, 0x00000000)  returns 0x00 (0003ms, 1983ms total)
T0A68 002:283 JLINK_WriteReg(R8, 0x00000000)  returns 0x00 (0002ms, 1986ms total)
T0A68 002:286 JLINK_WriteReg(R9, 0x1FFFF618)  returns 0x00 (0002ms, 1989ms total)
T0A68 002:289 JLINK_WriteReg(R10, 0x00000000)  returns 0x00 (0003ms, 1993ms total)
T0A68 002:292 JLINK_WriteReg(R11, 0x00000000)  returns 0x00 (0003ms, 1996ms total)
T0A68 002:295 JLINK_WriteReg(R12, 0x00000000)  returns 0x00 (0003ms, 1999ms total)
T0A68 002:299 JLINK_WriteReg(R13 (SP), 0x20003000)  returns 0x00 (0003ms, 2003ms total)
T0A68 002:303 JLINK_WriteReg(R14, 0x1FFFF001)  returns 0x00 (0003ms, 2007ms total)
T0A68 002:306 JLINK_WriteReg(R15 (PC), 0x1FFFF0BC)  returns 0x00 (0003ms, 2010ms total)
T0A68 002:309 JLINK_WriteReg(XPSR, 0x01000000)  returns 0x00 (0008ms, 2018ms total)
T0A68 002:317 JLINK_WriteReg(MSP, 0x20003000)  returns 0x00 (0004ms, 2022ms total)
T0A68 002:321 JLINK_WriteReg(PSP, 0x20003000)  returns 0x00 (0003ms, 2025ms total)
T0A68 002:324 JLINK_WriteReg(CFBP, 0x00000000)  returns 0x00 (0003ms, 2028ms total)
T0A68 002:328 JLINK_SetBPEx(Addr = 0x1FFFF000, Type = 0xFFFFFFF2)  returns 0x00000005 (0002ms, 2031ms total)
T0A68 002:331 JLINK_Go() -- CPU_WriteMem(4 bytes @ 0xE0002000) -- CPU_ReadMem(4 bytes @ 0xE0001000) -- CPU_WriteMem(4 bytes @ 0xE0001000) (0028ms, 2060ms total)
T0A68 002:360 JLINK_IsHalted()  returns TRUE (0012ms, 2073ms total)
T0A68 002:373 JLINK_ReadReg(R15 (PC))  returns 0x1FFFF000 (0003ms, 2064ms total)
T0A68 002:377 JLINK_ClrBPEx(BPHandle = 0x00000005)  returns 0x00 (0002ms, 2067ms total)
T0A68 002:380 JLINK_ReadReg(R0)  returns 0x00000000 (0002ms, 2070ms total)
T0A68 002:385 JLINK_WriteReg(R0, 0x00000800)  returns 0x00 (0004ms, 2075ms total)
T0A68 002:390 JLINK_WriteReg(R1, 0x00000400)  returns 0x00 (0003ms, 2079ms total)
T0A68 002:394 JLINK_WriteReg(R2, 0x000000FF)  returns 0x00 (0003ms, 2083ms total)
T0A68 002:397 JLINK_WriteReg(R3, 0x00000000)  returns 0x00 (0003ms, 2086ms total)
T0A68 002:400 JLINK_WriteReg(R4, 0x00000000)  returns 0x00 (0003ms, 2089ms total)
T0A68 002:403 JLINK_WriteReg(R5, 0x00000000)  returns 0x00 (0003ms, 2092ms total)
T0A68 002:406 JLINK_WriteReg(R6, 0x00000000)  returns 0x00 (0003ms, 2095ms total)
T0A68 002:410 JLINK_WriteReg(R7, 0x00000000)  returns 0x00 (0003ms, 2099ms total)
T0A68 002:413 JLINK_WriteReg(R8, 0x00000000)  returns 0x00 (0003ms, 2102ms total)
T0A68 002:417 JLINK_WriteReg(R9, 0x1FFFF618)  returns 0x00 (0002ms, 2105ms total)
T0A68 002:420 JLINK_WriteReg(R10, 0x00000000)  returns 0x00 (0002ms, 2108ms total)
T0A68 002:423 JLINK_WriteReg(R11, 0x00000000)  returns 0x00 (0003ms, 2112ms total)
T0A68 002:426 JLINK_WriteReg(R12, 0x00000000)  returns 0x00 (0011ms, 2123ms total)
T0A68 002:438 JLINK_WriteReg(R13 (SP), 0x20003000)  returns 0x00 (0003ms, 2127ms total)
T0A68 002:442 JLINK_WriteReg(R14, 0x1FFFF001)  returns 0x00 (0001ms, 2129ms total)
T0A68 002:444 JLINK_WriteReg(R15 (PC), 0x1FFFF068)  returns 0x00 (0003ms, 2133ms total)
T0A68 002:447 JLINK_WriteReg(XPSR, 0x01000000)  returns 0x00 (0003ms, 2136ms total)
T0A68 002:451 JLINK_WriteReg(MSP, 0x20003000)  returns 0x00 (0002ms, 2139ms total)
T0A68 002:454 JLINK_WriteReg(PSP, 0x20003000)  returns 0x00 (0002ms, 2142ms total)
T0A68 002:457 JLINK_WriteReg(CFBP, 0x00000000)  returns 0x00 (0003ms, 2146ms total)
T0A68 002:460 JLINK_SetBPEx(Addr = 0x1FFFF000, Type = 0xFFFFFFF2)  returns 0x00000006 (0007ms, 2153ms total)
T0A68 002:471 JLINK_Go() -- CPU_WriteMem(4 bytes @ 0xE0002000) -- CPU_ReadMem(4 bytes @ 0xE0001000) -- CPU_WriteMem(4 bytes @ 0xE0001000) (0028ms, 2185ms total)
T0A68 002:500 JLINK_IsHalted()  returns TRUE (0009ms, 2195ms total)
T0A68 002:510 JLINK_ReadReg(R15 (PC))  returns 0x1FFFF000 (0003ms, 2189ms total)
T0A68 002:514 JLINK_ClrBPEx(BPHandle = 0x00000006)  returns 0x00 (0003ms, 2193ms total)
T0A68 002:518 JLINK_ReadReg(R0)  returns 0x00000001 (0002ms, 2196ms total)
T0A68 002:521 JLINK_WriteReg(R0, 0x00000800)  returns 0x00 (0002ms, 2199ms total)
T0A68 002:524 JLINK_WriteReg(R1, 0x00000400)  returns 0x00 (0001ms, 2201ms total)
T0A68 002:526 JLINK_WriteReg(R2, 0x000000FF)  returns 0x00 (0004ms, 2206ms total)
T0A68 002:531 JLINK_WriteReg(R3, 0x00000000)  returns 0x00 (0003ms, 2210ms total)
T0A68 002:535 JLINK_WriteReg(R4, 0x00000000)  returns 0x00 (0002ms, 2213ms total)
T0A68 002:538 JLINK_WriteReg(R5, 0x00000000)  returns 0x00 (0002ms, 2216ms total)
T0A68 002:541 JLINK_WriteReg(R6, 0x00000000)  returns 0x00 (0003ms, 2220ms total)
T0A68 002:545 JLINK_WriteReg(R7, 0x00000000)  returns 0x00 (0004ms, 2225ms total)
T0A68 002:549 JLINK_WriteReg(R8, 0x00000000)  returns 0x00 (0003ms, 2228ms total)
T0A68 002:552 JLINK_WriteReg(R9, 0x1FFFF618)  returns 0x00 (0004ms, 2232ms total)
T0A68 002:557 JLINK_WriteReg(R10, 0x00000000)  returns 0x00 (0003ms, 2236ms total)
T0A68 002:561 JLINK_WriteReg(R11, 0x00000000)  returns 0x00 (0002ms, 2239ms total)
T0A68 002:564 JLINK_WriteReg(R12, 0x00000000)  returns 0x00 (0002ms, 2242ms total)
T0A68 002:567 JLINK_WriteReg(R13 (SP), 0x20003000)  returns 0x00 (0002ms, 2245ms total)
T0A68 002:569 JLINK_WriteReg(R14, 0x1FFFF001)  returns 0x00 (0003ms, 2248ms total)
T0A68 002:572 JLINK_WriteReg(R15 (PC), 0x1FFFF0BC)  returns 0x00 (0003ms, 2251ms total)
T0A68 002:575 JLINK_WriteReg(XPSR, 0x01000000)  returns 0x00 (0004ms, 2255ms total)
T0A68 002:579 JLINK_WriteReg(MSP, 0x20003000)  returns 0x00 (0008ms, 2263ms total)
T0A68 002:588 JLINK_WriteReg(PSP, 0x20003000)  returns 0x00 (0003ms, 2267ms total)
T0A68 002:592 JLINK_WriteReg(CFBP, 0x00000000)  returns 0x00 (0002ms, 2270ms total)
T0A68 002:595 JLINK_SetBPEx(Addr = 0x1FFFF000, Type = 0xFFFFFFF2)  returns 0x00000007 (0002ms, 2273ms total)
T0A68 002:598 JLINK_Go() -- CPU_WriteMem(4 bytes @ 0xE0002000) -- CPU_ReadMem(4 bytes @ 0xE0001000) -- CPU_WriteMem(4 bytes @ 0xE0001000) (0014ms, 2288ms total)
T0A68 002:613 JLINK_IsHalted()  returns FALSE (0006ms, 2295ms total)
T0A68 002:650 JLINK_IsHalted()  returns TRUE (0015ms, 2304ms total)
T0A68 002:667 JLINK_ReadReg(R15 (PC))  returns 0x1FFFF000 (0005ms, 2294ms total)
T0A68 002:672 JLINK_ClrBPEx(BPHandle = 0x00000007)  returns 0x00 (0003ms, 2297ms total)
T0A68 002:676 JLINK_ReadReg(R0)  returns 0x00000000 (0003ms, 2301ms total)
T0A68 002:680 JLINK_WriteReg(R0, 0x00000C00)  returns 0x00 (0002ms, 2303ms total)
T0A68 002:683 JLINK_WriteReg(R1, 0x00000400)  returns 0x00 (0003ms, 2307ms total)
T0A68 002:687 JLINK_WriteReg(R2, 0x000000FF)  returns 0x00 (0003ms, 2311ms total)
T0A68 002:691 JLINK_WriteReg(R3, 0x00000000)  returns 0x00 (0002ms, 2314ms total)
T0A68 002:693 JLINK_WriteReg(R4, 0x00000000)  returns 0x00 (0003ms, 2317ms total)
T0A68 002:696 JLINK_WriteReg(R5, 0x00000000)  returns 0x00 (0003ms, 2320ms total)
T0A68 002:699 JLINK_WriteReg(R6, 0x00000000)  returns 0x00 (0003ms, 2323ms total)
T0A68 002:703 JLINK_WriteReg(R7, 0x00000000)  returns 0x00 (0004ms, 2328ms total)
T0A68 002:708 JLINK_WriteReg(R8, 0x00000000)  returns 0x00 (0003ms, 2332ms total)
T0A68 002:712 JLINK_WriteReg(R9, 0x1FFFF618)  returns 0x00 (0002ms, 2335ms total)
T0A68 002:715 JLINK_WriteReg(R10, 0x00000000)  returns 0x00 (0003ms, 2339ms total)
T0A68 002:718 JLINK_WriteReg(R11, 0x00000000)  returns 0x00 (0003ms, 2342ms total)
T0A68 002:722 JLINK_WriteReg(R12, 0x00000000)  returns 0x00 (0003ms, 2346ms total)
T0A68 002:725 JLINK_WriteReg(R13 (SP), 0x20003000)  returns 0x00 (0003ms, 2349ms total)
T0A68 002:729 JLINK_WriteReg(R14, 0x1FFFF001)  returns 0x00 (0006ms, 2356ms total)
T0A68 002:736 JLINK_WriteReg(R15 (PC), 0x1FFFF068)  returns 0x00 (0003ms, 2360ms total)
T0A68 002:740 JLINK_WriteReg(XPSR, 0x01000000)  returns 0x00 (0004ms, 2365ms total)
T0A68 002:745 JLINK_WriteReg(MSP, 0x20003000)  returns 0x00 (0002ms, 2368ms total)
T0A68 002:748 JLINK_WriteReg(PSP, 0x20003000)  returns 0x00 (0002ms, 2371ms total)
T0A68 002:750 JLINK_WriteReg(CFBP, 0x00000000)  returns 0x00 (0003ms, 2374ms total)
T0A68 002:754 JLINK_SetBPEx(Addr = 0x1FFFF000, Type = 0xFFFFFFF2)  returns 0x00000008 (0005ms, 2380ms total)
T0A68 002:759 JLINK_Go() -- CPU_WriteMem(4 bytes @ 0xE0002000) -- CPU_ReadMem(4 bytes @ 0xE0001000) -- CPU_WriteMem(4 bytes @ 0xE0001000) (0033ms, 2413ms total)
T0A68 002:793 JLINK_IsHalted()  returns TRUE (0013ms, 2427ms total)
T0A68 002:807 JLINK_ReadReg(R15 (PC))  returns 0x1FFFF000 (0003ms, 2417ms total)
T0A68 002:811 JLINK_ClrBPEx(BPHandle = 0x00000008)  returns 0x00 (0002ms, 2420ms total)
T0A68 002:813 JLINK_ReadReg(R0)  returns 0x00000001 (0003ms, 2423ms total)
T0A68 002:817 JLINK_WriteReg(R0, 0x00000C00)  returns 0x00 (0010ms, 2434ms total)
T0A68 002:828 JLINK_WriteReg(R1, 0x00000400)  returns 0x00 (0005ms, 2440ms total)
T0A68 002:833 JLINK_WriteReg(R2, 0x000000FF)  returns 0x00 (0003ms, 2443ms total)
T0A68 002:837 JLINK_WriteReg(R3, 0x00000000)  returns 0x00 (0003ms, 2447ms total)
T0A68 002:840 JLINK_WriteReg(R4, 0x00000000)  returns 0x00 (0003ms, 2450ms total)
T0A68 002:844 JLINK_WriteReg(R5, 0x00000000)  returns 0x00 (0002ms, 2453ms total)
T0A68 002:847 JLINK_WriteReg(R6, 0x00000000)  returns 0x00 (0002ms, 2456ms total)
T0A68 002:850 JLINK_WriteReg(R7, 0x00000000)  returns 0x00 (0003ms, 2460ms total)
T0A68 002:856 JLINK_WriteReg(R8, 0x00000000)  returns 0x00 (0008ms, 2471ms total)
T0A68 002:864 JLINK_WriteReg(R9, 0x1FFFF618)  returns 0x00 (0003ms, 2474ms total)
T0A68 002:868 JLINK_WriteReg(R10, 0x00000000)  returns 0x00 (0003ms, 2478ms total)
T0A68 002:871 JLINK_WriteReg(R11, 0x00000000)  returns 0x00 (0003ms, 2481ms total)
T0A68 002:875 JLINK_WriteReg(R12, 0x00000000)  returns 0x00 (0002ms, 2484ms total)
T0A68 002:878 JLINK_WriteReg(R13 (SP), 0x20003000)  returns 0x00 (0004ms, 2489ms total)
T0A68 002:884 JLINK_WriteReg(R14, 0x1FFFF001)  returns 0x00 (0003ms, 2494ms total)
T0A68 002:888 JLINK_WriteReg(R15 (PC), 0x1FFFF0BC)  returns 0x00 (0003ms, 2498ms total)
T0A68 002:891 JLINK_WriteReg(XPSR, 0x01000000)  returns 0x00 (0003ms, 2501ms total)
T0A68 002:894 JLINK_WriteReg(MSP, 0x20003000)  returns 0x00 (0003ms, 2504ms total)
T0A68 002:898 JLINK_WriteReg(PSP, 0x20003000)  returns 0x00 (0002ms, 2507ms total)
T0A68 002:900 JLINK_WriteReg(CFBP, 0x00000000)  returns 0x00 (0003ms, 2510ms total)
T0A68 002:904 JLINK_SetBPEx(Addr = 0x1FFFF000, Type = 0xFFFFFFF2)  returns 0x00000009 (0002ms, 2513ms total)
T0A68 002:907 JLINK_Go() -- CPU_WriteMem(4 bytes @ 0xE0002000) -- CPU_ReadMem(4 bytes @ 0xE0001000) -- CPU_WriteMem(4 bytes @ 0xE0001000) (0024ms, 2538ms total)
T0A68 002:931 JLINK_IsHalted()  returns FALSE (0004ms, 2542ms total)
T0A68 002:964 JLINK_IsHalted()  returns TRUE (0012ms, 2550ms total)
T0A68 002:977 JLINK_ReadReg(R15 (PC))  returns 0x1FFFF000 (0004ms, 2542ms total)
T0A68 002:981 JLINK_ClrBPEx(BPHandle = 0x00000009)  returns 0x00 (0002ms, 2544ms total)
T0A68 002:984 JLINK_ReadReg(R0)  returns 0x00000000 (0003ms, 2548ms total)
T0A68 002:989 JLINK_WriteReg(R0, 0x00001000)  returns 0x00 (0003ms, 2552ms total)
T0A68 002:993 JLINK_WriteReg(R1, 0x00000400)  returns 0x00 (0003ms, 2556ms total)
T0A68 002:996 JLINK_WriteReg(R2, 0x000000FF)  returns 0x00 (0003ms, 2559ms total)
T0A68 002:999 JLINK_WriteReg(R3, 0x00000000)  returns 0x00 (0004ms, 2563ms total)
T0A68 003:012 JLINK_WriteReg(R4, 0x00000000)  returns 0x00 (0002ms, 2566ms total)
T0A68 003:015 JLINK_WriteReg(R5, 0x00000000)  returns 0x00 (0003ms, 2570ms total)
T0A68 003:019 JLINK_WriteReg(R6, 0x00000000)  returns 0x00 (0002ms, 2573ms total)
T0A68 003:022 JLINK_WriteReg(R7, 0x00000000)  returns 0x00 (0002ms, 2576ms total)
T0A68 003:025 JLINK_WriteReg(R8, 0x00000000)  returns 0x00 (0002ms, 2579ms total)
T0A68 003:027 JLINK_WriteReg(R9, 0x1FFFF618)  returns 0x00 (0003ms, 2582ms total)
T0A68 003:031 JLINK_WriteReg(R10, 0x00000000)  returns 0x00 (0003ms, 2586ms total)
T0A68 003:034 JLINK_WriteReg(R11, 0x00000000)  returns 0x00 (0003ms, 2589ms total)
T0A68 003:037 JLINK_WriteReg(R12, 0x00000000)  returns 0x00 (0003ms, 2592ms total)
T0A68 003:040 JLINK_WriteReg(R13 (SP), 0x20003000)  returns 0x00 (0003ms, 2595ms total)
T0A68 003:044 JLINK_WriteReg(R14, 0x1FFFF001)  returns 0x00 (0002ms, 2598ms total)
T0A68 003:047 JLINK_WriteReg(R15 (PC), 0x1FFFF068)  returns 0x00 (0002ms, 2601ms total)
T0A68 003:050 JLINK_WriteReg(XPSR, 0x01000000)  returns 0x00 (0003ms, 2605ms total)
T0A68 003:054 JLINK_WriteReg(MSP, 0x20003000)  returns 0x00 (0002ms, 2608ms total)
T0A68 003:057 JLINK_WriteReg(PSP, 0x20003000)  returns 0x00 (0002ms, 2611ms total)
T0A68 003:060 JLINK_WriteReg(CFBP, 0x00000000)  returns 0x00 (0003ms, 2615ms total)
T0A68 003:064 JLINK_SetBPEx(Addr = 0x1FFFF000, Type = 0xFFFFFFF2)  returns 0x0000000A (0001ms, 2617ms total)
T0A68 003:066 JLINK_Go() -- CPU_WriteMem(4 bytes @ 0xE0002000) -- CPU_ReadMem(4 bytes @ 0xE0001000) -- CPU_WriteMem(4 bytes @ 0xE0001000) (0017ms, 2635ms total)
T0A68 003:083 JLINK_IsHalted()  returns TRUE (0011ms, 2646ms total)
T0A68 003:095 JLINK_ReadReg(R15 (PC))  returns 0x1FFFF000 (0005ms, 2640ms total)
T0A68 003:100 JLINK_ClrBPEx(BPHandle = 0x0000000A)  returns 0x00 (0003ms, 2643ms total)
T0A68 003:104 JLINK_ReadReg(R0)  returns 0x00000001 (0002ms, 2646ms total)
T0A68 003:107 JLINK_WriteReg(R0, 0x00001000)  returns 0x00 (0001ms, 2648ms total)
T0A68 003:109 JLINK_WriteReg(R1, 0x00000400)  returns 0x00 (0003ms, 2652ms total)
T0A68 003:113 JLINK_WriteReg(R2, 0x000000FF)  returns 0x00 (0003ms, 2656ms total)
T0A68 003:116 JLINK_WriteReg(R3, 0x00000000)  returns 0x00 (0003ms, 2659ms total)
T0A68 003:120 JLINK_WriteReg(R4, 0x00000000)  returns 0x00 (0002ms, 2662ms total)
T0A68 003:123 JLINK_WriteReg(R5, 0x00000000)  returns 0x00 (0002ms, 2665ms total)
T0A68 003:126 JLINK_WriteReg(R6, 0x00000000)  returns 0x00 (0003ms, 2669ms total)
T0A68 003:129 JLINK_WriteReg(R7, 0x00000000)  returns 0x00 (0003ms, 2672ms total)
T0A68 003:132 JLINK_WriteReg(R8, 0x00000000)  returns 0x00 (0003ms, 2675ms total)
T0A68 003:135 JLINK_WriteReg(R9, 0x1FFFF618)  returns 0x00 (0003ms, 2678ms total)
T0A68 003:139 JLINK_WriteReg(R10, 0x00000000)  returns 0x00 (0003ms, 2682ms total)
T0A68 003:143 JLINK_WriteReg(R11, 0x00000000)  returns 0x00 (0003ms, 2686ms total)
T0A68 003:147 JLINK_WriteReg(R12, 0x00000000)  returns 0x00 (0002ms, 2689ms total)
T0A68 003:150 JLINK_WriteReg(R13 (SP), 0x20003000)  returns 0x00 (0002ms, 2692ms total)
T0A68 003:155 JLINK_WriteReg(R14, 0x1FFFF001)  returns 0x00 (0005ms, 2700ms total)
T0A68 003:161 JLINK_WriteReg(R15 (PC), 0x1FFFF0BC)  returns 0x00 (0003ms, 2704ms total)
T0A68 003:165 JLINK_WriteReg(XPSR, 0x01000000)  returns 0x00 (0005ms, 2710ms total)
T0A68 003:171 JLINK_WriteReg(MSP, 0x20003000)  returns 0x00 (0002ms, 2713ms total)
T0A68 003:174 JLINK_WriteReg(PSP, 0x20003000)  returns 0x00 (0004ms, 2718ms total)
T0A68 003:178 JLINK_WriteReg(CFBP, 0x00000000)  returns 0x00 (0003ms, 2721ms total)
T0A68 003:182 JLINK_SetBPEx(Addr = 0x1FFFF000, Type = 0xFFFFFFF2)  returns 0x0000000B (0002ms, 2724ms total)
T0A68 003:185 JLINK_Go() -- CPU_WriteMem(4 bytes @ 0xE0002000) -- CPU_ReadMem(4 bytes @ 0xE0001000) -- CPU_WriteMem(4 bytes @ 0xE0001000) (0026ms, 2751ms total)
T0A68 003:212 JLINK_IsHalted()  returns FALSE (0006ms, 2758ms total)
T0A68 003:249 JLINK_IsHalted()  returns TRUE (0011ms, 2763ms total)
T0A68 003:260 JLINK_ReadReg(R15 (PC))  returns 0x1FFFF000 (0003ms, 2755ms total)
T0A68 003:264 JLINK_ClrBPEx(BPHandle = 0x0000000B)  returns 0x00 (0002ms, 2758ms total)
T0A68 003:267 JLINK_ReadReg(R0)  returns 0x00000000 (0003ms, 2762ms total)
T0A68 003:276 JLINK_WriteReg(R0, 0x00001400)  returns 0x00 (0004ms, 2770ms total)
T0A68 003:281 JLINK_WriteReg(R1, 0x00000400)  returns 0x00 (0002ms, 2773ms total)
T0A68 003:284 JLINK_WriteReg(R2, 0x000000FF)  returns 0x00 (0002ms, 2776ms total)
T0A68 003:287 JLINK_WriteReg(R3, 0x00000000)  returns 0x00 (0003ms, 2780ms total)
T0A68 003:290 JLINK_WriteReg(R4, 0x00000000)  returns 0x00 (0003ms, 2783ms total)
T0A68 003:294 JLINK_WriteReg(R5, 0x00000000)  returns 0x00 (0004ms, 2788ms total)
T0A68 003:299 JLINK_WriteReg(R6, 0x00000000)  returns 0x00 (0002ms, 2791ms total)
T0A68 003:302 JLINK_WriteReg(R7, 0x00000000)  returns 0x00 (0004ms, 2796ms total)
T0A68 003:306 JLINK_WriteReg(R8, 0x00000000)  returns 0x00 (0003ms, 2799ms total)
T0A68 003:309 JLINK_WriteReg(R9, 0x1FFFF618)  returns 0x00 (0003ms, 2802ms total)
T0A68 003:312 JLINK_WriteReg(R10, 0x00000000)  returns 0x00 (0003ms, 2805ms total)
T0A68 003:316 JLINK_WriteReg(R11, 0x00000000)  returns 0x00 (0001ms, 2807ms total)
T0A68 003:318 JLINK_WriteReg(R12, 0x00000000)  returns 0x00 (0002ms, 2810ms total)
T0A68 003:321 JLINK_WriteReg(R13 (SP), 0x20003000)  returns 0x00 (0003ms, 2814ms total)
T0A68 003:324 JLINK_WriteReg(R14, 0x1FFFF001)  returns 0x00 (0003ms, 2817ms total)
T0A68 003:328 JLINK_WriteReg(R15 (PC), 0x1FFFF068)  returns 0x00 (0002ms, 2820ms total)
T0A68 003:331 JLINK_WriteReg(XPSR, 0x01000000)  returns 0x00 (0002ms, 2823ms total)
T0A68 003:334 JLINK_WriteReg(MSP, 0x20003000)  returns 0x00 (0003ms, 2827ms total)
T0A68 003:337 JLINK_WriteReg(PSP, 0x20003000)  returns 0x00 (0004ms, 2831ms total)
T0A68 003:342 JLINK_WriteReg(CFBP, 0x00000000)  returns 0x00 (0002ms, 2834ms total)
T0A68 003:345 JLINK_SetBPEx(Addr = 0x1FFFF000, Type = 0xFFFFFFF2)  returns 0x0000000C (0003ms, 2838ms total)
T0A68 003:348 JLINK_Go() -- CPU_WriteMem(4 bytes @ 0xE0002000) -- CPU_ReadMem(4 bytes @ 0xE0001000) -- CPU_WriteMem(4 bytes @ 0xE0001000) (0033ms, 2871ms total)
T0A68 003:382 JLINK_IsHalted()  returns TRUE (0010ms, 2882ms total)
T0A68 003:392 JLINK_ReadReg(R15 (PC))  returns 0x1FFFF000 (0003ms, 2875ms total)
T0A68 003:396 JLINK_ClrBPEx(BPHandle = 0x0000000C)  returns 0x00 (0003ms, 2879ms total)
T0A68 003:399 JLINK_ReadReg(R0)  returns 0x00000001 (0002ms, 2881ms total)
T0A68 003:401 JLINK_WriteReg(R0, 0x00001400)  returns 0x00 (0005ms, 2886ms total)
T0A68 003:406 JLINK_WriteReg(R1, 0x00000400)  returns 0x00 (0003ms, 2889ms total)
T0A68 003:410 JLINK_WriteReg(R2, 0x000000FF)  returns 0x00 (0004ms, 2894ms total)
T0A68 003:415 JLINK_WriteReg(R3, 0x00000000)  returns 0x00 (0003ms, 2898ms total)
T0A68 003:418 JLINK_WriteReg(R4, 0x00000000)  returns 0x00 (0003ms, 2901ms total)
T0A68 003:422 JLINK_WriteReg(R5, 0x00000000)  returns 0x00 (0003ms, 2905ms total)
T0A68 003:425 JLINK_WriteReg(R6, 0x00000000)  returns 0x00 (0003ms, 2908ms total)
T0A68 003:429 JLINK_WriteReg(R7, 0x00000000)  returns 0x00 (0002ms, 2911ms total)
T0A68 003:432 JLINK_WriteReg(R8, 0x00000000)  returns 0x00 (0003ms, 2915ms total)
T0A68 003:435 JLINK_WriteReg(R9, 0x1FFFF618)  returns 0x00 (0003ms, 2918ms total)
T0A68 003:438 JLINK_WriteReg(R10, 0x00000000)  returns 0x00 (0002ms, 2920ms total)
T0A68 003:441 JLINK_WriteReg(R11, 0x00000000)  returns 0x00 (0001ms, 2922ms total)
T0A68 003:443 JLINK_WriteReg(R12, 0x00000000)  returns 0x00 (0003ms, 2926ms total)
T0A68 003:446 JLINK_WriteReg(R13 (SP), 0x20003000)  returns 0x00 (0003ms, 2929ms total)
T0A68 003:449 JLINK_WriteReg(R14, 0x1FFFF001)  returns 0x00 (0003ms, 2932ms total)
T0A68 003:452 JLINK_WriteReg(R15 (PC), 0x1FFFF0BC)  returns 0x00 (0003ms, 2935ms total)
T0A68 003:456 JLINK_WriteReg(XPSR, 0x01000000)  returns 0x00 (0003ms, 2939ms total)
T0A68 003:459 JLINK_WriteReg(MSP, 0x20003000)  returns 0x00 (0003ms, 2942ms total)
T0A68 003:463 JLINK_WriteReg(PSP, 0x20003000)  returns 0x00 (0002ms, 2945ms total)
T0A68 003:467 JLINK_WriteReg(CFBP, 0x00000000)  returns 0x00 (0003ms, 2950ms total)
T0A68 003:470 JLINK_SetBPEx(Addr = 0x1FFFF000, Type = 0xFFFFFFF2)  returns 0x0000000D (0003ms, 2953ms total)
T0A68 003:474 JLINK_Go() -- CPU_WriteMem(4 bytes @ 0xE0002000) -- CPU_ReadMem(4 bytes @ 0xE0001000) -- CPU_WriteMem(4 bytes @ 0xE0001000) (0021ms, 2975ms total)
T0A68 003:495 JLINK_IsHalted()  returns TRUE (0011ms, 2986ms total)
T0A68 003:507 JLINK_ReadReg(R15 (PC))  returns 0x1FFFF000 (0003ms, 2978ms total)
T0A68 003:511 JLINK_ClrBPEx(BPHandle = 0x0000000D)  returns 0x00 (0003ms, 2982ms total)
T0A68 003:514 JLINK_ReadReg(R0)  returns 0x00000000 (0003ms, 2985ms total)
T0A68 003:525 JLINK_WriteReg(R0, 0x00001800)  returns 0x00 (0003ms, 2994ms total)
T0A68 003:528 JLINK_WriteReg(R1, 0x00000400)  returns 0x00 (0004ms, 2998ms total)
T0A68 003:532 JLINK_WriteReg(R2, 0x000000FF)  returns 0x00 (0004ms, 3002ms total)
T0A68 003:537 JLINK_WriteReg(R3, 0x00000000)  returns 0x00 (0002ms, 3005ms total)
T0A68 003:540 JLINK_WriteReg(R4, 0x00000000)  returns 0x00 (0003ms, 3009ms total)
T0A68 003:544 JLINK_WriteReg(R5, 0x00000000)  returns 0x00 (0002ms, 3012ms total)
T0A68 003:547 JLINK_WriteReg(R6, 0x00000000)  returns 0x00 (0003ms, 3016ms total)
T0A68 003:551 JLINK_WriteReg(R7, 0x00000000)  returns 0x00 (0003ms, 3020ms total)
T0A68 003:555 JLINK_WriteReg(R8, 0x00000000)  returns 0x00 (0003ms, 3024ms total)
T0A68 003:558 JLINK_WriteReg(R9, 0x1FFFF618)  returns 0x00 (0003ms, 3027ms total)
T0A68 003:561 JLINK_WriteReg(R10, 0x00000000)  returns 0x00 (0003ms, 3030ms total)
T0A68 003:564 JLINK_WriteReg(R11, 0x00000000)  returns 0x00 (0003ms, 3033ms total)
T0A68 003:567 JLINK_WriteReg(R12, 0x00000000)  returns 0x00 (0002ms, 3035ms total)
T0A68 003:569 JLINK_WriteReg(R13 (SP), 0x20003000)  returns 0x00 (0003ms, 3038ms total)
T0A68 003:573 JLINK_WriteReg(R14, 0x1FFFF001)  returns 0x00 (0002ms, 3041ms total)
T0A68 003:576 JLINK_WriteReg(R15 (PC), 0x1FFFF068)  returns 0x00 (0002ms, 3044ms total)
T0A68 003:579 JLINK_WriteReg(XPSR, 0x01000000)  returns 0x00 (0003ms, 3048ms total)
T0A68 003:582 JLINK_WriteReg(MSP, 0x20003000)  returns 0x00 (0003ms, 3051ms total)
T0A68 003:586 JLINK_WriteReg(PSP, 0x20003000)  returns 0x00 (0002ms, 3054ms total)
T0A68 003:589 JLINK_WriteReg(CFBP, 0x00000000)  returns 0x00 (0002ms, 3057ms total)
T0A68 003:592 JLINK_SetBPEx(Addr = 0x1FFFF000, Type = 0xFFFFFFF2)  returns 0x0000000E (0002ms, 3060ms total)
T0A68 003:595 JLINK_Go() -- CPU_WriteMem(4 bytes @ 0xE0002000) -- CPU_ReadMem(4 bytes @ 0xE0001000) -- CPU_WriteMem(4 bytes @ 0xE0001000) (0032ms, 3093ms total)
T0A68 003:628 JLINK_IsHalted()  returns TRUE (0008ms, 3102ms total)
T0A68 003:636 JLINK_ReadReg(R15 (PC))  returns 0x1FFFF000 (0003ms, 3097ms total)
T0A68 003:639 JLINK_ClrBPEx(BPHandle = 0x0000000E)  returns 0x00 (0003ms, 3100ms total)
T0A68 003:643 JLINK_ReadReg(R0)  returns 0x00000001 (0002ms, 3103ms total)
T0A68 003:646 JLINK_WriteReg(R0, 0x00001800)  returns 0x00 (0003ms, 3107ms total)
T0A68 003:649 JLINK_WriteReg(R1, 0x00000400)  returns 0x00 (0002ms, 3109ms total)
T0A68 003:657 JLINK_WriteReg(R2, 0x000000FF)  returns 0x00 (0002ms, 3117ms total)
T0A68 003:660 JLINK_WriteReg(R3, 0x00000000)  returns 0x00 (0002ms, 3120ms total)
T0A68 003:663 JLINK_WriteReg(R4, 0x00000000)  returns 0x00 (0003ms, 3124ms total)
T0A68 003:666 JLINK_WriteReg(R5, 0x00000000)  returns 0x00 (0003ms, 3127ms total)
T0A68 003:670 JLINK_WriteReg(R6, 0x00000000)  returns 0x00 (0002ms, 3130ms total)
T0A68 003:673 JLINK_WriteReg(R7, 0x00000000)  returns 0x00 (0002ms, 3133ms total)
T0A68 003:676 JLINK_WriteReg(R8, 0x00000000)  returns 0x00 (0002ms, 3136ms total)
T0A68 003:679 JLINK_WriteReg(R9, 0x1FFFF618)  returns 0x00 (0002ms, 3139ms total)
T0A68 003:682 JLINK_WriteReg(R10, 0x00000000)  returns 0x00 (0003ms, 3143ms total)
T0A68 003:685 JLINK_WriteReg(R11, 0x00000000)  returns 0x00 (0004ms, 3147ms total)
T0A68 003:689 JLINK_WriteReg(R12, 0x00000000)  returns 0x00 (0002ms, 3149ms total)
T0A68 003:692 JLINK_WriteReg(R13 (SP), 0x20003000)  returns 0x00 (0002ms, 3152ms total)
T0A68 003:694 JLINK_WriteReg(R14, 0x1FFFF001)  returns 0x00 (0003ms, 3155ms total)
T0A68 003:697 JLINK_WriteReg(R15 (PC), 0x1FFFF0BC)  returns 0x00 (0003ms, 3158ms total)
T0A68 003:701 JLINK_WriteReg(XPSR, 0x01000000)  returns 0x00 (0003ms, 3162ms total)
T0A68 003:713 JLINK_WriteReg(MSP, 0x20003000)  returns 0x00 (0006ms, 3170ms total)
T0A68 003:719 JLINK_WriteReg(PSP, 0x20003000)  returns 0x00 (0003ms, 3173ms total)
T0A68 003:723 JLINK_WriteReg(CFBP, 0x00000000)  returns 0x00 (0003ms, 3177ms total)
T0A68 003:726 JLINK_SetBPEx(Addr = 0x1FFFF000, Type = 0xFFFFFFF2)  returns 0x0000000F (0003ms, 3180ms total)
T0A68 003:730 JLINK_Go() -- CPU_WriteMem(4 bytes @ 0xE0002000) -- CPU_ReadMem(4 bytes @ 0xE0001000) -- CPU_WriteMem(4 bytes @ 0xE0001000) (0017ms, 3198ms total)
T0A68 003:747 JLINK_IsHalted()  returns FALSE (0006ms, 3204ms total)
T0A68 003:787 JLINK_IsHalted()  returns TRUE (0024ms, 3222ms total)
T0A68 003:812 JLINK_ReadReg(R15 (PC))  returns 0x1FFFF000 (0005ms, 3203ms total)
T0A68 003:817 JLINK_ClrBPEx(BPHandle = 0x0000000F)  returns 0x00 (0003ms, 3206ms total)
T0A68 003:821 JLINK_ReadReg(R0)  returns 0x00000000 (0003ms, 3210ms total)
T0A68 003:825 JLINK_WriteReg(R0, 0x00001C00)  returns 0x00 (0003ms, 3214ms total)
T0A68 003:829 JLINK_WriteReg(R1, 0x00000400)  returns 0x00 (0003ms, 3218ms total)
T0A68 003:833 JLINK_WriteReg(R2, 0x000000FF)  returns 0x00 (0002ms, 3221ms total)
T0A68 003:836 JLINK_WriteReg(R3, 0x00000000)  returns 0x00 (0002ms, 3224ms total)
T0A68 003:839 JLINK_WriteReg(R4, 0x00000000)  returns 0x00 (0002ms, 3227ms total)
T0A68 003:842 JLINK_WriteReg(R5, 0x00000000)  returns 0x00 (0002ms, 3230ms total)
T0A68 003:845 JLINK_WriteReg(R6, 0x00000000)  returns 0x00 (0003ms, 3234ms total)
T0A68 003:849 JLINK_WriteReg(R7, 0x00000000)  returns 0x00 (0003ms, 3238ms total)
T0A68 003:852 JLINK_WriteReg(R8, 0x00000000)  returns 0x00 (0003ms, 3241ms total)
T0A68 003:855 JLINK_WriteReg(R9, 0x1FFFF618)  returns 0x00 (0003ms, 3244ms total)
T0A68 003:859 JLINK_WriteReg(R10, 0x00000000)  returns 0x00 (0002ms, 3247ms total)
T0A68 003:862 JLINK_WriteReg(R11, 0x00000000)  returns 0x00 (0002ms, 3250ms total)
T0A68 003:865 JLINK_WriteReg(R12, 0x00000000)  returns 0x00 (0003ms, 3254ms total)
T0A68 003:868 JLINK_WriteReg(R13 (SP), 0x20003000)  returns 0x00 (0003ms, 3257ms total)
T0A68 003:872 JLINK_WriteReg(R14, 0x1FFFF001)  returns 0x00 (0002ms, 3260ms total)
T0A68 003:875 JLINK_WriteReg(R15 (PC), 0x1FFFF068)  returns 0x00 (0002ms, 3263ms total)
T0A68 003:878 JLINK_WriteReg(XPSR, 0x01000000)  returns 0x00 (0002ms, 3266ms total)
T0A68 003:881 JLINK_WriteReg(MSP, 0x20003000)  returns 0x00 (0002ms, 3269ms total)
T0A68 003:885 JLINK_WriteReg(PSP, 0x20003000)  returns 0x00 (0002ms, 3273ms total)
T0A68 003:888 JLINK_WriteReg(CFBP, 0x00000000)  returns 0x00 (0003ms, 3277ms total)
T0A68 003:891 JLINK_SetBPEx(Addr = 0x1FFFF000, Type = 0xFFFFFFF2)  returns 0x00000010 (0004ms, 3281ms total)
T0A68 003:896 JLINK_Go() -- CPU_WriteMem(4 bytes @ 0xE0002000) -- CPU_ReadMem(4 bytes @ 0xE0001000) -- CPU_WriteMem(4 bytes @ 0xE0001000) (0027ms, 3309ms total)
T0A68 003:923 JLINK_IsHalted()  returns TRUE (0010ms, 3319ms total)
T0A68 003:934 JLINK_ReadReg(R15 (PC))  returns 0x1FFFF000 (0002ms, 3311ms total)
T0A68 003:937 JLINK_ClrBPEx(BPHandle = 0x00000010)  returns 0x00 (0002ms, 3314ms total)
T0A68 003:940 JLINK_ReadReg(R0)  returns 0x00000001 (0002ms, 3317ms total)
T0A68 003:943 JLINK_WriteReg(R0, 0x00001C00)  returns 0x00 (0003ms, 3321ms total)
T0A68 003:946 JLINK_WriteReg(R1, 0x00000400)  returns 0x00 (0003ms, 3324ms total)
T0A68 003:949 JLINK_WriteReg(R2, 0x000000FF)  returns 0x00 (0003ms, 3327ms total)
T0A68 003:952 JLINK_WriteReg(R3, 0x00000000)  returns 0x00 (0003ms, 3330ms total)
T0A68 003:956 JLINK_WriteReg(R4, 0x00000000)  returns 0x00 (0002ms, 3333ms total)
T0A68 003:959 JLINK_WriteReg(R5, 0x00000000)  returns 0x00 (0003ms, 3337ms total)
T0A68 003:962 JLINK_WriteReg(R6, 0x00000000)  returns 0x00 (0003ms, 3340ms total)
T0A68 003:966 JLINK_WriteReg(R7, 0x00000000)  returns 0x00 (0003ms, 3344ms total)
T0A68 003:970 JLINK_WriteReg(R8, 0x00000000)  returns 0x00 (0002ms, 3347ms total)
T0A68 003:973 JLINK_WriteReg(R9, 0x1FFFF618)  returns 0x00 (0003ms, 3351ms total)
T0A68 003:976 JLINK_WriteReg(R10, 0x00000000)  returns 0x00 (0004ms, 3355ms total)
T0A68 003:981 JLINK_WriteReg(R11, 0x00000000)  returns 0x00 (0002ms, 3358ms total)
T0A68 003:983 JLINK_WriteReg(R12, 0x00000000)  returns 0x00 (0003ms, 3361ms total)
T0A68 003:986 JLINK_WriteReg(R13 (SP), 0x20003000)  returns 0x00 (0003ms, 3364ms total)
T0A68 003:989 JLINK_WriteReg(R14, 0x1FFFF001)  returns 0x00 (0003ms, 3367ms total)
T0A68 003:993 JLINK_WriteReg(R15 (PC), 0x1FFFF0BC)  returns 0x00 (0002ms, 3370ms total)
T0A68 003:996 JLINK_WriteReg(XPSR, 0x01000000)  returns 0x00 (0003ms, 3374ms total)
T0A68 003:999 JLINK_WriteReg(MSP, 0x20003000)  returns 0x00 (0003ms, 3377ms total)
T0A68 004:002 JLINK_WriteReg(PSP, 0x20003000)  returns 0x00 (0003ms, 3380ms total)
T0A68 004:005 JLINK_WriteReg(CFBP, 0x00000000)  returns 0x00 (0002ms, 3382ms total)
T0A68 004:008 JLINK_SetBPEx(Addr = 0x1FFFF000, Type = 0xFFFFFFF2)  returns 0x00000011 (0002ms, 3385ms total)
T0A68 004:011 JLINK_Go() -- CPU_WriteMem(4 bytes @ 0xE0002000) -- CPU_ReadMem(4 bytes @ 0xE0001000) -- CPU_WriteMem(4 bytes @ 0xE0001000) (0016ms, 3402ms total)
T0A68 004:028 JLINK_IsHalted()  returns FALSE (0005ms, 3408ms total)
T0A68 004:063 JLINK_IsHalted()  returns TRUE (0011ms, 3414ms total)
T0A68 004:075 JLINK_ReadReg(R15 (PC))  returns 0x1FFFF000 (0003ms, 3406ms total)
T0A68 004:078 JLINK_ClrBPEx(BPHandle = 0x00000011)  returns 0x00 (0003ms, 3409ms total)
T0A68 004:083 JLINK_ReadReg(R0)  returns 0x00000000 (0002ms, 3413ms total)
T0A68 004:086 JLINK_WriteReg(R0, 0x00002000)  returns 0x00 (0003ms, 3417ms total)
T0A68 004:090 JLINK_WriteReg(R1, 0x00000400)  returns 0x00 (0003ms, 3421ms total)
T0A68 004:093 JLINK_WriteReg(R2, 0x000000FF)  returns 0x00 (0003ms, 3424ms total)
T0A68 004:097 JLINK_WriteReg(R3, 0x00000000)  returns 0x00 (0004ms, 3429ms total)
T0A68 004:103 JLINK_WriteReg(R4, 0x00000000)  returns 0x00 (0005ms, 3436ms total)
T0A68 004:108 JLINK_WriteReg(R5, 0x00000000)  returns 0x00 (0003ms, 3439ms total)
T0A68 004:112 JLINK_WriteReg(R6, 0x00000000)  returns 0x00 (0003ms, 3443ms total)
T0A68 004:115 JLINK_WriteReg(R7, 0x00000000)  returns 0x00 (0003ms, 3446ms total)
T0A68 004:118 JLINK_WriteReg(R8, 0x00000000)  returns 0x00 (0003ms, 3449ms total)
T0A68 004:121 JLINK_WriteReg(R9, 0x1FFFF618)  returns 0x00 (0003ms, 3452ms total)
T0A68 004:124 JLINK_WriteReg(R10, 0x00000000)  returns 0x00 (0003ms, 3455ms total)
T0A68 004:127 JLINK_WriteReg(R11, 0x00000000)  returns 0x00 (0003ms, 3458ms total)
T0A68 004:130 JLINK_WriteReg(R12, 0x00000000)  returns 0x00 (0003ms, 3461ms total)
T0A68 004:133 JLINK_WriteReg(R13 (SP), 0x20003000)  returns 0x00 (0003ms, 3464ms total)
T0A68 004:137 JLINK_WriteReg(R14, 0x1FFFF001)  returns 0x00 (0002ms, 3467ms total)
T0A68 004:140 JLINK_WriteReg(R15 (PC), 0x1FFFF068)  returns 0x00 (0004ms, 3472ms total)
T0A68 004:145 JLINK_WriteReg(XPSR, 0x01000000)  returns 0x00 (0002ms, 3475ms total)
T0A68 004:148 JLINK_WriteReg(MSP, 0x20003000)  returns 0x00 (0002ms, 3478ms total)
T0A68 004:150 JLINK_WriteReg(PSP, 0x20003000)  returns 0x00 (0003ms, 3481ms total)
T0A68 004:153 JLINK_WriteReg(CFBP, 0x00000000)  returns 0x00 (0003ms, 3484ms total)
T0A68 004:156 JLINK_SetBPEx(Addr = 0x1FFFF000, Type = 0xFFFFFFF2)  returns 0x00000012 (0003ms, 3487ms total)
T0A68 004:159 JLINK_Go() -- CPU_WriteMem(4 bytes @ 0xE0002000) -- CPU_ReadMem(4 bytes @ 0xE0001000) -- CPU_WriteMem(4 bytes @ 0xE0001000) (0021ms, 3508ms total)
T0A68 004:180 JLINK_IsHalted()  returns TRUE (0015ms, 3523ms total)
T0A68 004:196 JLINK_ReadReg(R15 (PC))  returns 0x1FFFF000 (0002ms, 3510ms total)
T0A68 004:199 JLINK_ClrBPEx(BPHandle = 0x00000012)  returns 0x00 (0003ms, 3514ms total)
T0A68 004:202 JLINK_ReadReg(R0)  returns 0x00000001 (0003ms, 3517ms total)
T0A68 004:205 JLINK_WriteReg(R0, 0x00002000)  returns 0x00 (0003ms, 3520ms total)
T0A68 004:208 JLINK_WriteReg(R1, 0x00000400)  returns 0x00 (0003ms, 3523ms total)
T0A68 004:212 JLINK_WriteReg(R2, 0x000000FF)  returns 0x00 (0003ms, 3527ms total)
T0A68 004:215 JLINK_WriteReg(R3, 0x00000000)  returns 0x00 (0003ms, 3530ms total)
T0A68 004:219 JLINK_WriteReg(R4, 0x00000000)  returns 0x00 (0003ms, 3534ms total)
T0A68 004:222 JLINK_WriteReg(R5, 0x00000000)  returns 0x00 (0003ms, 3537ms total)
T0A68 004:226 JLINK_WriteReg(R6, 0x00000000)  returns 0x00 (0002ms, 3540ms total)
T0A68 004:229 JLINK_WriteReg(R7, 0x00000000)  returns 0x00 (0003ms, 3544ms total)
T0A68 004:232 JLINK_WriteReg(R8, 0x00000000)  returns 0x00 (0002ms, 3546ms total)
